Return-Path: <linux-kernel-owner@vger.kernel.org>
X-Original-To: lists+linux-kernel@lfdr.de
Delivered-To: lists+linux-kernel@lfdr.de
Received: from vger.kernel.org (vger.kernel.org [209.132.180.67])
	by mail.lfdr.de (Postfix) with ESMTP id 2779717BD0C
	for <lists+linux-kernel@lfdr.de>; Fri,  6 Mar 2020 13:46:50 +0100 (CET)
Received: (majordomo@vger.kernel.org) by vger.kernel.org via listexpand
        id S1726646AbgCFMqq (ORCPT <rfc822;lists+linux-kernel@lfdr.de>);
        Fri, 6 Mar 2020 07:46:46 -0500
Received: from vps.xff.cz ([195.181.215.36]:54066 "EHLO vps.xff.cz"
        rhost-flags-OK-OK-OK-OK) by vger.kernel.org with ESMTP
        id S1726485AbgCFMqq (ORCPT <rfc822;linux-kernel@vger.kernel.org>);
        Fri, 6 Mar 2020 07:46:46 -0500
DKIM-Signature: v=1; a=rsa-sha256; c=relaxed/simple; d=megous.com; s=mail;
        t=1583498804; bh=Hq/SxVhmuqTkQU0lHEM/7do8nN5uoeLcscHI4XCDnT0=;
        h=Date:From:To:Cc:Subject:References:X-My-GPG-KeyId:From;
        b=RnG6d57C8x+pmDej2igLxil8i2jQRp9SxKEUnOY6oU8d5cXRVV6+HSv8EIF5cbt4e
         ZktQtIXowPU3HA3oh4Jh27qXXPajdsCjIAvtLqsmjwi5Lyvs6Y9W+VZGkO01IzNUJ7
         wZ2z3bBxJI/KHm6jkD+b9tppcqVThi4Tzd/hpHrs=
Date:   Fri, 6 Mar 2020 13:46:43 +0100
From:   =?utf-8?Q?Ond=C5=99ej?= Jirman <megous@megous.com>
To:     Nicolas Boichat <drinkcat@chromium.org>
Cc:     Icenowy Zheng <icenowy@aosc.io>,
        Enric Balletbo i Serra <enric.balletbo@collabora.com>,
        Vasily Khoruzhick <anarsoul@gmail.com>,
        Enric Balletbo Serra <eballetbo@gmail.com>,
        Jernej Skrabec <jernej.skrabec@siol.net>,
        Laurent Pinchart <Laurent.pinchart@ideasonboard.com>,
        Neil Armstrong <narmstrong@baylibre.com>,
        David Airlie <airlied@linux.ie>, Torsten Duwe <duwe@suse.de>,
        Jonas Karlman <jonas@kwiboo.se>,
        linux-kernel <linux-kernel@vger.kernel.org>,
        dri-devel <dri-devel@lists.freedesktop.org>,
        Andrzej Hajda <a.hajda@samsung.com>,
        Maxime Ripard <maxime@cerno.tech>,
        Hsin-Yi Wang <hsinyi@chromium.org>,
        Matthias Brugger <matthias.bgg@gmail.com>,
        Thomas Gleixner <tglx@linutronix.de>,
        Collabora Kernel ML <kernel@collabora.com>
Subject: Re: [PATCH v2 2/2] drm/bridge: anx7688: Add anx7688 bridge driver
 support
Message-ID: <20200306124643.wec6d47loprk4zfi@core.my.home>
Mail-Followup-To: =?utf-8?Q?Ond=C5=99ej?= Jirman <megous@megous.com>,
        Nicolas Boichat <drinkcat@chromium.org>,
        Icenowy Zheng <icenowy@aosc.io>,
        Enric Balletbo i Serra <enric.balletbo@collabora.com>,
        Vasily Khoruzhick <anarsoul@gmail.com>,
        Enric Balletbo Serra <eballetbo@gmail.com>,
        Jernej Skrabec <jernej.skrabec@siol.net>,
        Laurent Pinchart <Laurent.pinchart@ideasonboard.com>,
        Neil Armstrong <narmstrong@baylibre.com>,
        David Airlie <airlied@linux.ie>, Torsten Duwe <duwe@suse.de>,
        Jonas Karlman <jonas@kwiboo.se>,
        linux-kernel <linux-kernel@vger.kernel.org>,
        dri-devel <dri-devel@lists.freedesktop.org>,
        Andrzej Hajda <a.hajda@samsung.com>,
        Maxime Ripard <maxime@cerno.tech>,
        Hsin-Yi Wang <hsinyi@chromium.org>,
        Matthias Brugger <matthias.bgg@gmail.com>,
        Thomas Gleixner <tglx@linutronix.de>,
        Collabora Kernel ML <kernel@collabora.com>
References: <CA+E=qVfGiQseZZVBvmmK6u2Mu=-91ViwLuhNegu96KRZNAHr_w@mail.gmail.com>
 <CAFqH_505eWt9UU7Wj6tCQpQCMZFMfy9e1ETSkiqi7i5Zx6KULQ@mail.gmail.com>
 <CA+E=qVff5_hdPFdaG4Lrg7Uzorea=JbEdPoy+sQd7rUGNTTZ5g@mail.gmail.com>
 <5245a8e4-2320-46bd-04fd-f86ce6b17ce7@collabora.com>
 <CA+E=qVcyRW4LNC5db27d-8x-T_Nk9QAhkBPwu5rwthTc6ewbYA@mail.gmail.com>
 <20200305193505.4km5j7n25ph4b6hn@core.my.home>
 <2a5a4a62-3189-e053-21db-983a4c766d44@collabora.com>
 <5d72a8c6824b31163a303b5ef1526efe05121e5d.camel@aosc.io>
 <20200306120726.t7aitfz5rq3m7m6y@core.my.home>
 <CANMq1KC1R4B66Nr01pADa3RV8NpkPqkM-1pe-1N1nQiMviX1Cg@mail.gmail.com>
MIME-Version: 1.0
Content-Type: text/plain; charset=utf-8
Content-Disposition: inline
Content-Transfer-Encoding: 8bit
In-Reply-To: <CANMq1KC1R4B66Nr01pADa3RV8NpkPqkM-1pe-1N1nQiMviX1Cg@mail.gmail.com>
X-My-GPG-KeyId: EBFBDDE11FB918D44D1F56C1F9F0A873BE9777ED
 <https://xff.cz/key.txt>
Sender: linux-kernel-owner@vger.kernel.org
Precedence: bulk
List-ID: <linux-kernel.vger.kernel.org>
X-Mailing-List: linux-kernel@vger.kernel.org

On Fri, Mar 06, 2020 at 08:11:07PM +0800, Nicolas Boichat wrote:
> On Fri, Mar 6, 2020 at 8:07 PM Ondřej Jirman <megous@megous.com> wrote:
> 
> What about the values at 0x2c?

i2cdump 0 0x28

     0  1  2  3  4  5  6  7  8  9  a  b  c  d  e  f    0123456789abcdef
00: aa aa 88 76 ac 00 00 00 00 00 00 00 00 80 05 05    ???v?........???
10: 30 00 00 00 00 00 00 00 00 00 00 00 00 00 00 00    0...............
20: 00 00 00 00 00 00 00 00 00 00 00 34 f2 e4 ff 00    ...........4??..
30: 04 40 00 04 94 11 20 ff ff 03 00 ff ff ff 00 01    ?@.??? ..?.....?
40: 78 a4 00 09 00 08 05 84 10 60 17 00 00 0a 00 b0    x?.?.????`?..?.?
50: 00 00 00 0a 00 00 e0 df ff ff 00 00 00 10 71 00    ...?..??.....?q.
60: 10 10 04 29 2d 21 10 01 09 03 00 03 e8 13 88 00    ???)-!????.????.
70: 00 19 18 83 06 5a 11 00 ff 00 00 0d 04 38 42 07    .????Z?....??8B?
80: 00 00 00 00 00 74 1b 19 40 08 75 00 00 00 00 00    .....t??@?u.....
90: 00 00 00 00 00 00 03 00 ff 30 00 59 01 00 00 00    ......?..0.Y?...
a0: 00 ff ff ff ff 00 00 00 00 00 00 00 00 00 00 00    ................
b0: 00 00 00 00 00 00 00 00 00 00 00 00 00 00 00 00    ................
c0: 00 00 00 00 00 00 00 00 0a 10 18 00 00 ff 00 00    ........???.....
d0: 00 00 00 00 00 00 00 00 00 00 00 00 00 00 00 00    ................
e0: 50 10 08 50 00 02 00 70 00 00 30 10 11 02 1c 01    P??P.?.p..0?????
f0: 00 11 07 00 94 11 7f 00 00 00 00 00 00 01 0e ff    .??.???......??.

i2cdump 0 0x2c

     0  1  2  3  4  5  6  7  8  9  a  b  c  d  e  f    0123456789abcdef
00: 29 1f 88 76 00 ac 11 00 11 20 10 10 00 00 00 00    )??v.??.? ??....
10: 03 00 ff 8f ff 7f 00 00 00 00 0a 00 10 11 0c 00    ?..?.?....?.???.
20: 00 00 00 00 99 06 c0 00 00 00 00 00 00 00 02 00    ....???.......?.
30: 00 00 00 00 00 00 00 00 00 00 00 00 00 00 00 00    ................
40: 00 00 00 00 00 00 00 00 00 00 00 00 00 00 00 00    ................
50: 00 00 00 00 00 00 00 00 00 00 00 00 00 00 00 00    ................
60: 00 00 00 00 00 00 00 00 00 00 00 00 00 00 00 00    ................
70: b4 00 00 00 00 00 00 00 00 00 00 00 00 00 00 00    ?...............
80: 01 25 00 00 00 00 00 00 00 00 00 00 00 00 00 00    ?%..............
90: 0f 0f 00 00 00 00 00 00 00 00 00 00 00 00 00 00    ??..............
a0: 00 00 00 00 00 00 00 00 00 00 00 00 00 00 00 00    ................
b0: 00 00 00 00 00 00 00 00 00 00 00 00 00 00 00 00    ................
c0: 00 00 00 00 00 00 00 00 00 00 00 00 00 00 00 00    ................
d0: 00 00 00 00 00 00 00 00 00 00 00 00 00 00 00 00    ................
e0: 00 00 00 00 00 00 00 00 00 00 00 00 00 00 00 00    ................
f0: 00 00 00 00 00 00 00 00 00 00 00 00 00 00 00 00    ................


regards,
	o.

> 
> Thanks,
